Circuit: *** SPICE deck for cell inv{sch} from library bai_2

Ignoring BSIM parameter XL
Ignoring BSIM parameter XW
Ignoring BSIM parameter XL
Ignoring BSIM parameter XW
Warning: Pd = 0 is less than W.
Warning: Ps = 0 is less than W.
Warning: Pd = 0 is less than W.
Warning: Ps = 0 is less than W.
Direct Newton iteration for .op point succeeded.
Semiconductor Device Operating Points:
                        --- BSIM3 MOSFETS ---
Name:     mpmos-4@0   mnmos-4@0
Model:      pmos        nmos
Id:        4.69e-12    5.01e-12
Vgs:      -5.00e+00    0.00e+00
Vds:       4.99e-08    5.00e+00
Vbs:       4.99e-08    0.00e+00
Vth:      -9.81e-01    3.91e+00
Vdsat:    -2.18e+00    3.54e-02
Gm:        6.70e-13    8.89e-53
Gds:       9.39e-05    1.56e-54
Gmb        4.68e-13    1.05e-52
Cbd:       0.00e+00    0.00e+00
Cbs:       0.00e+00    0.00e+00
Cgsov:     1.83e-16    2.11e-17
Cgdov:     1.83e-16    2.11e-17
Cgbov:     4.89e-16    5.28e-16
dQgdVgb:   1.63e-15    7.09e-16
dQgdVdb:  -5.62e-16   -2.11e-17
dQgdVsb:  -5.61e-16   -2.12e-17
dQddVgb:  -5.68e-16   -2.11e-17
dQddVdb:   5.02e-16    2.11e-17
dQddVsb:   1.73e-16    0.00e+00
dQbdVgb:  -4.90e-16   -6.66e-16
dQbdVdb:  -2.59e-16    0.00e+00
dQbdVsb:   3.08e-17    4.61e-20



Date: Fri Oct 31 14:47:06 2025
Total elapsed time: 0.079 seconds.

tnom = 27
temp = 27
method = trap
totiter = 10
traniter = 0
tranpoints = 0
accept = 0
rejected = 0
matrix size = 5
fillins = 0
solver = Normal
Matrix Compiler1: 204 bytes object code size
Matrix Compiler2: 311 bytes object code size
